# vsim -debugDB -l testbench.log -voptargs="+acc" -assertdebug -c testbench -do "log -r /*;run -all;" 
# Start time: 23:28:16 on Feb 27,2025
# ** Note: (vsim-3813) Design is being optimized due to module recompilation...
# ** Note: (vsim-8611) Generating debug db.
# ** Warning: (vopt-10587) Some optimizations are turned off because the +acc switch is in effect. This will cause your simulation to run slowly. Please use -access/-debug to maintain needed visibility.
# ** Warning: ../tb/driver_slave.sv(144): (vopt-2250) Function "write_mem" has no return value assignment.
# ** Warning: ../tb/driver_slave.sv(148): (vopt-2250) Function "read_mem" has no return value assignment.
# ** Note: (vsim-12126) Error and warning message counts have been restored: Errors=0, Warnings=3.
# //  Questa Intel Starter FPGA Edition-64
# //  Version 2022.4 linux_x86_64 Oct 18 2022
# //
# //  Copyright 1991-2022 Mentor Graphics Corporation
# //  All Rights Reserved.
# //
# //  QuestaSim and its associated documentation contain trade
# //  secrets and commercial or financial information that are the property of
# //  Mentor Graphics Corporation and are privileged, confidential,
# //  and exempt from disclosure under the Freedom of Information Act,
# //  5 U.S.C. Section 552. Furthermore, this information
# //  is prohibited from disclosure under the Trade Secrets Act,
# //  18 U.S.C. Section 1905.
# //
# Loading sv_std.std
# Loading work.axi_if(fast)
# Loading mtiUvm.uvm_pkg(fast)
# Loading work.testbench_sv_unit(fast)
# Loading mtiUvm.questa_uvm_pkg(fast)
# Loading work.testbench(fast)
# Loading work.axi_if(fast__2)
# Loading /opt/intelFPGA_pro/23.1/questa_fse/uvm-1.1d/linux_x86_64/uvm_dpi.so
# ** Note: (vsim-8900) Creating design debug database vsim.dbg.
# log -r /*
# run -all
# ----------------------------------------------------------------
# UVM-1.1d
# (C) 2007-2013 Mentor Graphics Corporation
# (C) 2007-2013 Cadence Design Systems, Inc.
# (C) 2006-2013 Synopsys, Inc.
# (C) 2011-2013 Cypress Semiconductor Corp.
# ----------------------------------------------------------------
# 
#   ***********       IMPORTANT RELEASE NOTES         ************
# 
#   You are using a version of the UVM library that has been compiled
#   with `UVM_NO_DEPRECATED undefined.
#   See http://www.eda.org/svdb/view.php?id=3313 for more details.
# 
#   You are using a version of the UVM library that has been compiled
#   with `UVM_OBJECT_MUST_HAVE_CONSTRUCTOR undefined.
#   See http://www.eda.org/svdb/view.php?id=3770 for more details.
# 
#       (Specify +UVM_NO_RELNOTES to turn off this notice)
# 
# UVM_INFO verilog_src/questa_uvm_pkg-1.2/src/questa_uvm_pkg.sv(277) @ 0: reporter [Questa UVM] QUESTA_UVM-1.2.3
# UVM_INFO verilog_src/questa_uvm_pkg-1.2/src/questa_uvm_pkg.sv(278) @ 0: reporter [Questa UVM]  questa_uvm::init(+struct)
# UVM_INFO @ 0: reporter [RNTST] Running test axi_test...
# UVM_INFO ../tb/driver.sv(18) @ 0: uvm_test_top.environment.master_agent.master_driver [Connect interface] Driver Connected to interface
# UVM_INFO ../tb/monitor.sv(16) @ 0: uvm_test_top.environment.master_agent.master_monitor [Connect interface] Monitor connected interface
# UVM_INFO ../tb/driver_slave.sv(20) @ 0: uvm_test_top.environment.slave_agent.slave_driver [Connect interface] Driver slave Connected to interface
# UVM_INFO ../tb/monitor_slave.sv(14) @ 0: uvm_test_top.environment.slave_agent.slave_monitor [Connect interface] Monitor slave Connected to interface
# UVM_INFO ../tb/test.sv(17) @ 0: uvm_test_top [Test class] Elaboration phase
# --------------------------------------------------------------
# Name                       Type                    Size  Value
# --------------------------------------------------------------
# uvm_test_top               axi_test                -     @471 
#   environment              axi_environment         -     @478 
#     master_agent           master_axi_agent        -     @503 
#       master_driver        master_axi_driver       -     @511 
#         rsp_port           uvm_analysis_port       -     @526 
#         seq_item_port      uvm_seq_item_pull_port  -     @518 
#       master_monitor       master_axi_monitor      -     @534 
#       sequencer            axi_sequencer           -     @541 
#         rsp_export         uvm_analysis_export     -     @548 
#         seq_item_export    uvm_seq_item_pull_imp   -     @642 
#         arbitration_queue  array                   0     -    
#         lock_queue         array                   0     -    
#         num_last_reqs      integral                32    'd1  
#         num_last_rsps      integral                32    'd1  
#     scoreboard             axi_scoreboard          -     @489 
#     slave_agent            slave_axi_agent         -     @496 
#       slave_driver         slave_axi_driver        -     @658 
#         rsp_port           uvm_analysis_port       -     @673 
#         seq_item_port      uvm_seq_item_pull_port  -     @665 
#       slave_monitor        slave_axi_monitor       -     @681 
# --------------------------------------------------------------
# UVM_INFO ../tb/driver.sv(48) @ 30: uvm_test_top.environment.master_agent.master_driver [RESET DUT] Reset done in master side
# UVM_INFO ../tb/driver_slave.sv(47) @ 30: uvm_test_top.environment.slave_agent.slave_driver [RESET DUT] Reset done in slave side
# UVM_INFO ../tb/sequence.sv(15) @ 30: uvm_test_top.environment.master_agent.sequencer@@seq [axi_sequence] Item generated done
# ------------------------------------------------------------------------------------------------------
# Name                           Type          Size  Value                                              
# ------------------------------------------------------------------------------------------------------
# item                           transaction   -     @693                                               
#   awlen                        integral      4     'hd                                                
#   awsize                       integral      3     'h1                                                
#   awaddr                       integral      32    'h350                                              
#   awburst                      integral      2     'h2                                                
#   awid                         integral      4     'h0                                                
#   wdata                        da(integral)  14    -                                                  
#     [0]                        integral      32    'h443ace02                                         
#     [1]                        integral      32    'h58b0363                                          
#     [2]                        integral      32    'h68b69ebd                                         
#     [3]                        integral      32    'hd7b862eb                                         
#     [4]                        integral      32    'h638896b0                                         
#     ...                        ...           ...   ...                                                
#     [9]                        integral      32    'h893979f7                                         
#     [10]                       integral      32    'h22e4d059                                         
#     [11]                       integral      32    'h1b1d8b0a                                         
#     [12]                       integral      32    'hc0e21518                                         
#     [13]                       integral      32    'h251f2eaa                                         
#   wstrb                        integral      4     'hd                                                
#   wid                          integral      4     'h0                                                
#   bid                          integral      4     'h0                                                
#   arid                         integral      4     'hd                                                
#   araddr                       integral      32    'hcb                                               
#   arlen                        integral      4     'h3                                                
#   arsize                       integral      3     'h3                                                
#   arburst                      integral      2     'h1                                                
#   rid                          integral      4     'h7                                                
#   rdata                        integral      32    'h0                                                
#   rresp                        integral      2     'h1                                                
#   begin_time                   time          64    30                                                 
#   depth                        int           32    'd2                                                
#   parent sequence (name)       string        3     seq                                                
#   parent sequence (full name)  string        51    uvm_test_top.environment.master_agent.sequencer.seq
#   sequencer                    string        47    uvm_test_top.environment.master_agent.sequencer    
# ------------------------------------------------------------------------------------------------------
# Pull down edge arvalid detected
# Read address at Master side 110
# Read data at Master side 150 and arlen is: 3
# Read data at Slave side: 170
# Read data at Master side 230 and arlen is: 3
# Read data at Slave side: 250
# Read data at Master side 310 and arlen is: 3
# Read data at Slave side: 330
# Read data at Master side 390 and arlen is: 3
# Read data at Slave side: 410
# Pull down edge arvalid detected
# UVM_INFO ../tb/sequence.sv(15) @ 1270: uvm_test_top.environment.master_agent.sequencer@@seq [axi_sequence] Item generated done
# ------------------------------------------------------------------------------------------------------
# Name                           Type          Size  Value                                              
# ------------------------------------------------------------------------------------------------------
# item                           transaction   -     @730                                               
#   awlen                        integral      4     'hb                                                
#   awsize                       integral      3     'h1                                                
#   awaddr                       integral      32    'hc8                                               
#   awburst                      integral      2     'h3                                                
#   awid                         integral      4     'hb                                                
#   wdata                        da(integral)  12    -                                                  
#     [0]                        integral      32    'h66bc738a                                         
#     [1]                        integral      32    'h103be3d0                                         
#     [2]                        integral      32    'hdc314e0                                          
#     [3]                        integral      32    'hc71cc234                                         
#     [4]                        integral      32    'h2f094632                                         
#     ...                        ...           ...   ...                                                
#     [7]                        integral      32    'h366201fa                                         
#     [8]                        integral      32    'h76280d25                                         
#     [9]                        integral      32    'hdb99bd86                                         
#     [10]                       integral      32    'h94c6ee31                                         
#     [11]                       integral      32    'h69aca787                                         
#   wstrb                        integral      4     'h4                                                
#   wid                          integral      4     'hb                                                
#   bid                          integral      4     'h0                                                
#   arid                         integral      4     'h7                                                
#   araddr                       integral      32    'h1b3                                              
#   arlen                        integral      4     'he                                                
#   arsize                       integral      3     'h5                                                
#   arburst                      integral      2     'h0                                                
#   rid                          integral      4     'h1                                                
#   rdata                        integral      32    'h0                                                
#   rresp                        integral      2     'h1                                                
#   begin_time                   time          64    1270                                               
#   depth                        int           32    'd2                                                
#   parent sequence (name)       string        3     seq                                                
#   parent sequence (full name)  string        51    uvm_test_top.environment.master_agent.sequencer.seq
#   sequencer                    string        47    uvm_test_top.environment.master_agent.sequencer    
# ------------------------------------------------------------------------------------------------------
# Read address at Master side 1350
# Read data at Master side 1390 and arlen is: 14
# Read data at Slave side: 1410
# Read data at Master side 1470 and arlen is: 14
# Read data at Slave side: 1490
# Read data at Master side 1550 and arlen is: 14
# Read data at Slave side: 1570
# Read data at Master side 1630 and arlen is: 14
# Read data at Slave side: 1650
# Read data at Master side 1710 and arlen is: 14
# Read data at Slave side: 1730
# Read data at Master side 1790 and arlen is: 14
# Read data at Slave side: 1810
# Read data at Master side 1870 and arlen is: 14
# Read data at Slave side: 1890
# Read data at Master side 1950 and arlen is: 14
# Read data at Slave side: 1970
# Read data at Master side 2030 and arlen is: 14
# Read data at Slave side: 2050
# Read data at Master side 2110 and arlen is: 14
# Read data at Slave side: 2130
# Read data at Master side 2190 and arlen is: 14
# Read data at Slave side: 2210
# Read data at Master side 2270 and arlen is: 14
# Read data at Slave side: 2290
# Read data at Master side 2350 and arlen is: 14
# Read data at Slave side: 2370
# Read data at Master side 2430 and arlen is: 14
# Read data at Slave side: 2450
# Read data at Master side 2510 and arlen is: 14
# UVM_INFO ../tb/sequence.sv(15) @ 2510: uvm_test_top.environment.master_agent.sequencer@@seq [axi_sequence] Item generated done
# ------------------------------------------------------------------------------------------------------
# Name                           Type          Size  Value                                              
# ------------------------------------------------------------------------------------------------------
# item                           transaction   -     @738                                               
#   awlen                        integral      4     'hd                                                
#   awsize                       integral      3     'h4                                                
#   awaddr                       integral      32    'h25f                                              
#   awburst                      integral      2     'h0                                                
#   awid                         integral      4     'h3                                                
#   wdata                        da(integral)  14    -                                                  
#     [0]                        integral      32    'h9ac84267                                         
#     [1]                        integral      32    'h9eb68aa5                                         
#     [2]                        integral      32    'hb03a2ab2                                         
#     [3]                        integral      32    'h4c8342b0                                         
#     [4]                        integral      32    'h6878ee89                                         
#     ...                        ...           ...   ...                                                
#     [9]                        integral      32    'hff7f25b3                                         
#     [10]                       integral      32    'hf75ad67c                                         
#     [11]                       integral      32    'h4b985ac1                                         
#     [12]                       integral      32    'he37cf614                                         
#     [13]                       integral      32    'hcab87b03                                         
#   wstrb                        integral      4     'h0                                                
#   wid                          integral      4     'h3                                                
#   bid                          integral      4     'h0                                                
#   arid                         integral      4     'ha                                                
#   araddr                       integral      32    'h3da                                              
#   arlen                        integral      4     'ha                                                
#   arsize                       integral      3     'h6                                                
#   arburst                      integral      2     'h1                                                
#   rid                          integral      4     'h4                                                
#   rdata                        integral      32    'h0                                                
#   rresp                        integral      2     'h2                                                
#   begin_time                   time          64    2510                                               
#   depth                        int           32    'd2                                                
#   parent sequence (name)       string        3     seq                                                
#   parent sequence (full name)  string        51    uvm_test_top.environment.master_agent.sequencer.seq
#   sequencer                    string        47    uvm_test_top.environment.master_agent.sequencer    
# ------------------------------------------------------------------------------------------------------
# Read data at Slave side: 2530
# Pull down edge arvalid detected
# Read address at Master side 2590
# Read data at Master side 2630 and arlen is: 10
# Read data at Slave side: 2650
# Read data at Master side 2710 and arlen is: 10
# Read data at Slave side: 2730
# Read data at Master side 2790 and arlen is: 10
# Read data at Slave side: 2810
# Read data at Master side 2870 and arlen is: 10
# Read data at Slave side: 2890
# Read data at Master side 2950 and arlen is: 10
# Read data at Slave side: 2970
# Read data at Master side 3030 and arlen is: 10
# Read data at Slave side: 3050
# Read data at Master side 3110 and arlen is: 10
# Read data at Slave side: 3130
# Read data at Master side 3190 and arlen is: 10
# Read data at Slave side: 3210
# Read data at Master side 3270 and arlen is: 10
# Read data at Slave side: 3290
# Read data at Master side 3350 and arlen is: 10
# Read data at Slave side: 3370
# Read data at Master side 3430 and arlen is: 10
# Read data at Slave side: 3450
# Pull down edge arvalid detected
# UVM_INFO verilog_src/uvm-1.1d/src/base/uvm_objection.svh(1267) @ 3750: reporter [TEST_DONE] 'run' phase is ready to proceed to the 'extract' phase
# 
# --- UVM Report Summary ---
# 
# ** Report counts by severity
# UVM_INFO :   14
# UVM_WARNING :    0
# UVM_ERROR :    0
# UVM_FATAL :    0
# ** Report counts by id
# [Connect interface]     4
# [Questa UVM]     2
# [RESET DUT]     2
# [RNTST]     1
# [TEST_DONE]     1
# [Test class]     1
# [axi_sequence]     3
# ** Note: $finish    : /opt/intelFPGA_pro/23.1/questa_fse/linux_x86_64/../verilog_src/uvm-1.1d/src/base/uvm_root.svh(430)
#    Time: 3750 ns  Iteration: 61  Instance: /testbench
# End time: 23:28:17 on Feb 27,2025, Elapsed time: 0:00:01
# Errors: 0, Warnings: 3
