# vsim -debugDB -l testbench.log -voptargs="+acc" -assertdebug -c testbench -do "log -r /*;run -all;" 
# Start time: 23:22:25 on Jan 09,2025
# ** Note: (vsim-3813) Design is being optimized due to module recompilation...
# ** Note: (vsim-8611) Generating debug db.
# ** Warning: (vopt-10587) Some optimizations are turned off because the +acc switch is in effect. This will cause your simulation to run slowly. Please use -access/-debug to maintain needed visibility.
# ** Note: (vsim-12126) Error and warning message counts have been restored: Errors=0, Warnings=1.
# //  Questa Intel Starter FPGA Edition-64
# //  Version 2022.4 linux_x86_64 Oct 18 2022
# //
# //  Copyright 1991-2022 Mentor Graphics Corporation
# //  All Rights Reserved.
# //
# //  QuestaSim and its associated documentation contain trade
# //  secrets and commercial or financial information that are the property of
# //  Mentor Graphics Corporation and are privileged, confidential,
# //  and exempt from disclosure under the Freedom of Information Act,
# //  5 U.S.C. Section 552. Furthermore, this information
# //  is prohibited from disclosure under the Trade Secrets Act,
# //  18 U.S.C. Section 1905.
# //
# Loading sv_std.std
# Loading work.axi_if(fast)
# Loading mtiUvm.uvm_pkg(fast)
# Loading work.testbench_sv_unit(fast)
# Loading mtiUvm.questa_uvm_pkg(fast)
# Loading work.testbench(fast)
# Loading work.axi_if(fast__2)
# Loading work.axi_slave(fast)
# Loading /home/nhat/intelFPGA_pro/23.1/questa_fse/uvm-1.1d/linux_x86_64/uvm_dpi.so
# ** Note: (vsim-8900) Creating design debug database vsim.dbg.
# log -r /*
# run -all
# ----------------------------------------------------------------
# UVM-1.1d
# (C) 2007-2013 Mentor Graphics Corporation
# (C) 2007-2013 Cadence Design Systems, Inc.
# (C) 2006-2013 Synopsys, Inc.
# (C) 2011-2013 Cypress Semiconductor Corp.
# ----------------------------------------------------------------
# 
#   ***********       IMPORTANT RELEASE NOTES         ************
# 
#   You are using a version of the UVM library that has been compiled
#   with `UVM_NO_DEPRECATED undefined.
#   See http://www.eda.org/svdb/view.php?id=3313 for more details.
# 
#   You are using a version of the UVM library that has been compiled
#   with `UVM_OBJECT_MUST_HAVE_CONSTRUCTOR undefined.
#   See http://www.eda.org/svdb/view.php?id=3770 for more details.
# 
#       (Specify +UVM_NO_RELNOTES to turn off this notice)
# 
# UVM_INFO verilog_src/questa_uvm_pkg-1.2/src/questa_uvm_pkg.sv(277) @ 0: reporter [Questa UVM] QUESTA_UVM-1.2.3
# UVM_INFO verilog_src/questa_uvm_pkg-1.2/src/questa_uvm_pkg.sv(278) @ 0: reporter [Questa UVM]  questa_uvm::init(+struct)
# UVM_INFO @ 0: reporter [RNTST] Running test axi_test...
# UVM_INFO ../tb/monitor.sv(10) @ 0: uvm_test_top.environment.agent.monitor [MONITOR] Constructor Executed
# UVM_INFO ../tb/driver.sv(16) @ 0: uvm_test_top.environment.agent.driver [Connect interface] Driver Connected to interface
# UVM_INFO ../tb/monitor.sv(20) @ 0: uvm_test_top.environment.agent.monitor [Connect interface] Monitor connected interface
# UVM_INFO ../tb/test.sv(27) @ 0: uvm_test_top [Test class] Elaboration phase
# --------------------------------------------------------------
# Name                       Type                    Size  Value
# --------------------------------------------------------------
# uvm_test_top               axi_test                -     @471 
#   environment              axi_env                 -     @478 
#     agent                  axi_agent               -     @496 
#       driver               axi_driver              -     @620 
#         rsp_port           uvm_analysis_port       -     @635 
#         seq_item_port      uvm_seq_item_pull_port  -     @627 
#       monitor              axi_monitor             -     @643 
#         collected_item     uvm_analysis_port       -     @651 
#       sequencer            axi_sequencer           -     @511 
#         rsp_export         uvm_analysis_export     -     @518 
#         seq_item_export    uvm_seq_item_pull_imp   -     @612 
#         arbitration_queue  array                   0     -    
#         lock_queue         array                   0     -    
#         num_last_reqs      integral                32    'd1  
#         num_last_rsps      integral                32    'd1  
#     agent_slave            axi_agent_slave         -     @503 
#       driver_slave         axi_driver_slave        -     @775 
#         rsp_port           uvm_analysis_port       -     @790 
#         seq_item_port      uvm_seq_item_pull_port  -     @782 
#       monitor_slave        axi_monitor_slave       -     @798 
#       sequencer_slave      axi_sequencer_slave     -     @666 
#         rsp_export         uvm_analysis_export     -     @673 
#         seq_item_export    uvm_seq_item_pull_imp   -     @767 
#         arbitration_queue  array                   0     -    
#         lock_queue         array                   0     -    
#         num_last_reqs      integral                32    'd1  
#         num_last_rsps      integral                32    'd1  
#     scoreboard             axi_scoreboard          -     @489 
# --------------------------------------------------------------
# ==========================================
# UVM_INFO ../tb/sequence.sv(50) @ 0: uvm_test_top.environment.agent.sequencer@@seq [SEQ] Sending fixed mode transaction to DRV
# UVM_INFO ../tb/driver.sv(32) @ 30: uvm_test_top.environment.agent.driver [DRV] Write Transaction in Fixed Mode Started
# UVM_INFO ../tb/monitor.sv(64) @ 90: uvm_test_top.environment.agent.monitor [WRITE ADDRESS] Captured awaddr: 00000014 at time:                   90
# UVM_INFO ../tb/monitor.sv(78) @ 100: uvm_test_top.environment.agent.monitor [WRITE DATA] Captured wdata: fa6eff6b, wlast: 0
# UVM_INFO ../tb/monitor.sv(64) @ 170: uvm_test_top.environment.agent.monitor [WRITE ADDRESS] Captured awaddr: 00000014 at time:                  170
# UVM_INFO ../tb/monitor.sv(78) @ 180: uvm_test_top.environment.agent.monitor [WRITE DATA] Captured wdata: 965d8080, wlast: 0
# UVM_INFO ../tb/monitor.sv(64) @ 250: uvm_test_top.environment.agent.monitor [WRITE ADDRESS] Captured awaddr: 00000014 at time:                  250
# UVM_INFO ../tb/monitor.sv(78) @ 260: uvm_test_top.environment.agent.monitor [WRITE DATA] Captured wdata: 59867797, wlast: 0
# UVM_INFO ../tb/monitor.sv(64) @ 330: uvm_test_top.environment.agent.monitor [WRITE ADDRESS] Captured awaddr: 00000014 at time:                  330
# UVM_INFO ../tb/monitor.sv(78) @ 340: uvm_test_top.environment.agent.monitor [WRITE DATA] Captured wdata: 78bd75f2, wlast: 0
# UVM_INFO ../tb/monitor.sv(64) @ 410: uvm_test_top.environment.agent.monitor [WRITE ADDRESS] Captured awaddr: 00000014 at time:                  410
# UVM_INFO ../tb/monitor.sv(78) @ 420: uvm_test_top.environment.agent.monitor [WRITE DATA] Captured wdata: 959fb708, wlast: 0
# UVM_INFO ../tb/monitor.sv(64) @ 490: uvm_test_top.environment.agent.monitor [WRITE ADDRESS] Captured awaddr: 00000014 at time:                  490
# UVM_INFO ../tb/monitor.sv(78) @ 500: uvm_test_top.environment.agent.monitor [WRITE DATA] Captured wdata: 58d3054e, wlast: 0
# UVM_INFO ../tb/monitor.sv(64) @ 570: uvm_test_top.environment.agent.monitor [WRITE ADDRESS] Captured awaddr: 00000014 at time:                  570
# UVM_INFO ../tb/monitor.sv(78) @ 580: uvm_test_top.environment.agent.monitor [WRITE DATA] Captured wdata: 60159914, wlast: 0
# UVM_INFO ../tb/monitor.sv(64) @ 650: uvm_test_top.environment.agent.monitor [WRITE ADDRESS] Captured awaddr: 00000014 at time:                  650
# UVM_INFO ../tb/monitor.sv(78) @ 660: uvm_test_top.environment.agent.monitor [WRITE DATA] Captured wdata: 16abbacf, wlast: 0
# UVM_INFO ../tb/monitor.sv(89) @ 690: uvm_test_top.environment.agent.monitor [WRITE RESPONSE] Captured bresp: 0, bvalid: 1
# UVM_INFO ../tb/driver.sv(71) @ 730: uvm_test_top.environment.agent.driver [DRV] Read Transaction in Fixed Mode Started
# UVM_INFO verilog_src/uvm-1.1d/src/base/uvm_objection.svh(1267) @ 1230: reporter [TEST_DONE] 'run' phase is ready to proceed to the 'extract' phase
# 
# --- UVM Report Summary ---
# 
# ** Report counts by severity
# UVM_INFO :   28
# UVM_WARNING :    0
# UVM_ERROR :    0
# UVM_FATAL :    0
# ** Report counts by id
# [Connect interface]     2
# [DRV]     2
# [MONITOR]     1
# [Questa UVM]     2
# [RNTST]     1
# [SEQ]     1
# [TEST_DONE]     1
# [Test class]     1
# [WRITE ADDRESS]     8
# [WRITE DATA]     8
# [WRITE RESPONSE]     1
# ** Note: $finish    : /home/nhat/intelFPGA_pro/23.1/questa_fse/linux_x86_64/../verilog_src/uvm-1.1d/src/base/uvm_root.svh(430)
#    Time: 1230 ns  Iteration: 63  Instance: /testbench
# End time: 23:22:26 on Jan 09,2025, Elapsed time: 0:00:01
# Errors: 0, Warnings: 1
